Circuit: * C:\Users\Admin\Documents\SAQ\sim\Draft1.asc

WARNING: Less than two connections to node u1:9.  This node is used by e:u1:cmr.
Direct Newton iteration for .op point succeeded.
Semiconductor Device Operating Points:
                        --- Diodes ---
Name:  d:u1:cmlim1  d:u1:lim1   d:u1:lim2   d:u1:out1   d:u1:out2
Model:  u1:dquiet   u1:dquiet   u1:dquiet   u1:dquiet   u1:dquiet
Id:      1.00e+00   -7.99e-12    4.16e-10    2.36e-09    2.36e-09
Vd:      8.34e-01   -7.98e+00    2.75e-01    3.20e-01    3.20e-01
Req:     2.59e-02    1.00e+12    6.22e+07    1.10e+07    1.10e+07
CAP:     0.00e+00    0.00e+00    0.00e+00    0.00e+00    0.00e+00

Name:  d:u1:vnoise d:u1:inoise1 d:u1:inoise2 d:u1:slew1  d:u1:slew2
Model: u1:dvnoise  u1:dinoise1  u1:dinoise2   u1:dzener   u1:dzener
Id:      0.00e+00     0.00e+00     0.00e+00    6.39e-25   -6.22e-25
Vd:      0.00e+00     0.00e+00     0.00e+00    4.61e-13   -4.49e-13
Req:     7.21e+11     7.21e+11     7.21e+11    7.21e+11    7.21e+11
CAP:     0.00e+00     0.00e+00     0.00e+00    0.00e+00    0.00e+00

                        --- Bipolar Transistors ---
Name:     q:u1:1      q:u1:2
Model:    u1:npn      u1:npn
Ib:      -9.69e-12   -9.69e-12
Ic:       9.00e-12    9.00e-12
Vbe:     -6.93e-01   -6.92e-01
Vbc:     -9.00e+00   -9.00e+00
Vce:      8.31e+00    8.31e+00
BetaDC:  -9.28e-01   -9.29e-01
Gm:       8.86e-27    9.21e-27
Rpi:      1.00e+12    1.00e+12
Rx:       0.00e+00    0.00e+00
Ro:       0.00e+00    0.00e+00
Cbe:      0.00e+00    0.00e+00
Cbc:      0.00e+00    0.00e+00
Cjs:      0.00e+00    0.00e+00
BetaAC:   8.86e-15    9.21e-15
Cbx:      0.00e+00    0.00e+00
Ft:       0.00e+00    0.00e+00



Date: Sun Nov  2 21:36:07 2025
Total elapsed time: 0.044 seconds.

tnom = 27
temp = 27
method = trap
totiter = 40
traniter = 0
tranpoints = 0
accept = 0
rejected = 0
matrix size = 76
fillins = 28
solver = Normal
Avg thread counts: 4.0/0.0/4.0/4.0
Matrix Compiler1: 3.19 KB object code size
Matrix Compiler2:     454 opcodes
